T3848 000:007.397   SEGGER J-Link V6.70e Log File
T3848 000:007.513   DLL Compiled: Apr 17 2020 17:55:05
T3848 000:007.520   Logging started @ 2021-07-29 15:03
T3848 000:007.530 JLINK_SetWarnOutHandler(...)
T3848 000:007.538 - 0.011ms
T3848 000:007.548 JLINK_OpenEx(...)
T3848 000:009.173   Firmware: J-Link V9 compiled Dec 13 2019 11:14:50
T3848 000:009.355   Decompressing FW timestamp took 143 us
T3848 000:015.483   Hardware: V9.70
T3848 000:015.506   S/N: 59700618
T3848 000:015.515   OEM: SEGGER
T3848 000:015.524   Feature(s): RDI, FlashBP, FlashDL, JFlash, GDB
T3848 000:016.404   TELNET listener socket opened on port 19021
T3848 000:016.568   WEBSRV Starting webserver
T3848 000:016.676   WEBSRV Webserver running on local port 19080
T3848 000:016.687 - 9.143ms returns "O.K."
T3848 000:016.706 JLINK_GetEmuCaps()
T3848 000:016.713 - 0.009ms returns 0xB9FF7BBF
T3848 000:016.723 JLINK_TIF_GetAvailable(...)
T3848 000:016.940 - 0.225ms
T3848 000:016.958 JLINK_SetErrorOutHandler(...)
T3848 000:016.964 - 0.009ms
T3848 000:016.988 JLINK_ExecCommand("ProjectFile = "C:\Users\Stone\Desktop\STM32 ´úÂëÑ§Ï°\01_Stand Temp\Project\JLinkSettings.ini"", ...). 
T3848 000:026.683 - 9.713ms returns 0x00
T3848 000:034.206 JLINK_ExecCommand("Device = STM32F103ZE", ...). 
T3848 000:042.102   Device "STM32F103ZE" selected.
T3848 000:042.663 - 8.428ms returns 0x00
T3848 000:042.683 JLINK_ExecCommand("DisableConnectionTimeout", ...). 
T3848 000:042.770 - 0.011ms returns 0x01
T3848 000:042.785 JLINK_GetHardwareVersion()
T3848 000:042.791 - 0.010ms returns 0x17AE8
T3848 000:042.800 JLINK_GetDLLVersion()  returns 67005
T3848 000:042.814 JLINK_GetFirmwareString(...)
T3848 000:042.821 - 0.009ms
T3848 000:055.665 JLINK_GetDLLVersion()  returns 67005
T3848 000:055.684 JLINK_GetCompileDateTime()
T3848 000:055.690 - 0.009ms
T3848 000:058.880 JLINK_GetFirmwareString(...)
T3848 000:058.898 - 0.021ms
T3848 000:065.382 JLINK_GetHardwareVersion()
T3848 000:065.399 - 0.019ms returns 0x17AE8
T3848 000:093.684 JLINK_TIF_Select(JLINKARM_TIF_JTAG)
T3848 000:094.340 - 0.670ms returns 0x00
T3848 000:094.414 JLINK_SetSpeed(10000)
T3848 000:094.483 - 0.077ms
T3848 000:094.499 JLINK_GetIdData(pIdData)
T3848 000:101.118   TotalIRLen = 9, IRPrint = 0x0011
T3848 000:105.371   JTAG chain detection found 2 devices:
T3848 000:109.911    #0 Id: 0x3BA00477, IRLen: 04, CoreSight JTAG-DP
T3848 000:113.426    #1 Id: 0x06414041, IRLen: 05, STM32 Boundary Scan
T3848 000:121.703   TotalIRLen = 9, IRPrint = 0x0011
T3848 000:126.760   JTAG chain detection found 2 devices:
T3848 000:131.599    #0 Id: 0x3BA00477, IRLen: 04, CoreSight JTAG-DP
T3848 000:135.224    #1 Id: 0x06414041, IRLen: 05, STM32 Boundary Scan
T3848 000:136.138   Old FW that does not support reading DPIDR via DAP jobs
T3848 000:140.106   Unknown DP version. Assuming DPv0
T3848 000:143.652   Scanning AP map to find all available APs
T3848 000:147.708   AP[1]: Stopped AP scan as end of AP map has been reached
T3848 000:150.623   AP[0]: AHB-AP (IDR: 0x14770011)
T3848 000:153.253   Iterating through AP map to find AHB-AP to use
T3848 000:156.513   AP[0]: Core found
T3848 000:158.969   AP[0]: AHB-AP ROM base: 0xE00FF000
T3848 000:162.063   CPUID register: 0x411FC231. Implementer code: 0x41 (ARM)
T3848 000:164.696   Found Cortex-M3 r1p1, Little endian.
T3848 000:165.020    -- Max. mem block: 0x00010DD0
T3848 000:165.045   CPU_ReadMem(4 bytes @ 0xE000EDF0)
T3848 000:166.106   CPU_WriteMem(4 bytes @ 0xE000EDF0)
T3848 000:166.342   CPU_ReadMem(4 bytes @ 0xE0002000)
T3848 000:169.338   FPUnit: 6 code (BP) slots and 2 literal slots
T3848 000:169.358   CPU_ReadMem(4 bytes @ 0xE000EDFC)
T3848 000:169.615   CPU_WriteMem(4 bytes @ 0xE000EDFC)
T3848 000:169.845   CPU_ReadMem(4 bytes @ 0xE0001000)
T3848 000:170.104   CPU_WriteMem(4 bytes @ 0xE0001000)
T3848 000:170.330   CPU_ReadMem(4 bytes @ 0xE000ED88)
T3848 000:170.583   CPU_WriteMem(4 bytes @ 0xE000ED88)
T3848 000:170.851   CPU_ReadMem(4 bytes @ 0xE000ED88)
T3848 000:171.081   CPU_WriteMem(4 bytes @ 0xE000ED88)
T3848 000:174.111   CoreSight components:
T3848 000:177.903   ROMTbl[0] @ E00FF000
T3848 000:177.929   CPU_ReadMem(64 bytes @ 0xE00FF000)
T3848 000:178.354   CPU_ReadMem(32 bytes @ 0xE000EFE0)
T3848 000:181.948   ROMTbl[0][0]: E000E000, CID: B105E00D, PID: 001BB000 SCS
T3848 000:181.970   CPU_ReadMem(32 bytes @ 0xE0001FE0)
T3848 000:185.468   ROMTbl[0][1]: E0001000, CID: B105E00D, PID: 001BB002 DWT
T3848 000:185.487   CPU_ReadMem(32 bytes @ 0xE0002FE0)
T3848 000:188.426   ROMTbl[0][2]: E0002000, CID: B105E00D, PID: 000BB003 FPB
T3848 000:188.446   CPU_ReadMem(32 bytes @ 0xE0000FE0)
T3848 000:191.671   ROMTbl[0][3]: E0000000, CID: B105E00D, PID: 001BB001 ITM
T3848 000:191.692   CPU_ReadMem(32 bytes @ 0xE0040FE0)
T3848 000:194.646   ROMTbl[0][4]: E0040000, CID: B105900D, PID: 001BB923 TPIU-Lite
T3848 000:194.672   CPU_ReadMem(32 bytes @ 0xE0041FE0)
T3848 000:197.761   ROMTbl[0][5]: E0041000, CID: B105900D, PID: 101BB924 ETM-M3
T3848 000:197.813   pIdData->ScanLen=9
T3848 000:197.823   
T3848 000:197.829   pIdData->NumDevices=2
T3848 000:197.837   
T3848 000:197.844   pIdData->aId[0]=0x3BA00477
T3848 000:197.853   
T3848 000:197.858   pIdData->aIrRead[0]=0
T3848 000:197.867   
T3848 000:197.873   pIdData->aScanLen[0]=0
T3848 000:197.881   
T3848 000:197.887   pIdData->aScanRead[0]=0
T3848 000:197.896   
T3848 000:197.902 - 103.406ms
T3848 000:197.918 JLINK_JTAG_GetDeviceID(DeviceIndex = 0)
T3848 000:197.925 - 0.010ms returns 0x3BA00477
T3848 000:197.934 JLINK_JTAG_GetDeviceInfo(DeviceIndex = 0)
T3848 000:197.941 - 0.009ms returns 0x00
T3848 000:197.985 JLINK_JTAG_GetDeviceID(DeviceIndex = 1)
T3848 000:197.995 - 0.013ms returns 0x6414041
T3848 000:198.004 JLINK_JTAG_GetDeviceInfo(DeviceIndex = 1)
T3848 000:198.010 - 0.009ms returns 0x00
T3848 000:198.020 JLINK_GetDLLVersion()  returns 67005
T3848 000:198.029 JLINK_CORE_GetFound()
T3848 000:198.035 - 0.009ms returns 0x30000FF
T3848 000:198.043 JLINK_GetDebugInfo(0x100 = JLINKARM_ROM_TABLE_ADDR_INDEX)
T3848 000:198.054   Value=0xE00FF000
T3848 000:198.063 - 0.022ms returns 0x00
T3848 000:201.853 JLINK_GetDebugInfo(0x100 = JLINKARM_ROM_TABLE_ADDR_INDEX)
T3848 000:201.870   Value=0xE00FF000
T3848 000:201.879 - 0.029ms returns 0x00
T3848 000:201.887 JLINK_GetDebugInfo(0x101 = JLINKARM_DEBUG_INFO_ETM_ADDR_INDEX)
T3848 000:201.894   Value=0xE0041000
T3848 000:201.902 - 0.017ms returns 0x00
T3848 000:201.911   JLINK_ReadMemEx(0xE0041FD0, 0x0020 Bytes, ..., Flags = 0x02000004)
T3848 000:201.939   CPU_ReadMem(32 bytes @ 0xE0041FD0)
T3848 000:202.250   Data:  04 00 00 00 00 00 00 00 00 00 00 00 00 00 00 00 ...
T3848 000:202.263 - 0.355ms returns 0x20
T3848 000:202.273 JLINK_GetDebugInfo(0x102 = JLINKARM_DEBUG_INFO_MTB_ADDR_INDEX)
T3848 000:202.280   Value=0x00000000
T3848 000:202.288 - 0.018ms returns 0x00
T3848 000:202.296 JLINK_GetDebugInfo(0x103 = JLINKARM_DEBUG_INFO_TPIU_ADDR_INDEX)
T3848 000:202.302   Value=0xE0040000
T3848 000:202.311 - 0.017ms returns 0x00
T3848 000:202.319 JLINK_GetDebugInfo(0x104 = JLINKARM_DEBUG_INFO_ITM_ADDR_INDEX)
T3848 000:202.325   Value=0xE0000000
T3848 000:202.334 - 0.017ms returns 0x00
T3848 000:202.341 JLINK_GetDebugInfo(0x105 = JLINKARM_DEBUG_INFO_DWT_ADDR_INDEX)
T3848 000:202.348   Value=0xE0001000
T3848 000:202.356 - 0.017ms returns 0x00
T3848 000:202.364 JLINK_GetDebugInfo(0x106 = JLINKARM_DEBUG_INFO_FPB_ADDR_INDEX)
T3848 000:202.370   Value=0xE0002000
T3848 000:202.379 - 0.017ms returns 0x00
T3848 000:202.386 JLINK_GetDebugInfo(0x107 = JLINKARM_DEBUG_INFO_NVIC_ADDR_INDEX)
T3848 000:202.392   Value=0xE000E000
T3848 000:202.401 - 0.017ms returns 0x00
T3848 000:202.409 JLINK_GetDebugInfo(0x10C = JLINKARM_DEBUG_INFO_DBG_ADDR_INDEX)
T3848 000:202.415   Value=0xE000EDF0
T3848 000:202.424 - 0.017ms returns 0x00
T3848 000:202.431 JLINK_GetDebugInfo(0x01 = Unknown)
T3848 000:202.440   Value=0x00000000
T3848 000:202.448 - 0.019ms returns 0x00
T3848 000:202.458 JLINK_ReadMemU32(0xE000ED00, 0x0001 Items, ...)
T3848 000:202.469   CPU_ReadMem(4 bytes @ 0xE000ED00)
T3848 000:202.683   Data:  31 C2 1F 41
T3848 000:202.702    - CPUID
T3848 000:202.711 - 0.256ms returns 1
T3848 000:202.721 JLINK_GetDebugInfo(0x10F = JLINKARM_DEBUG_INFO_HAS_CORTEX_M_SECURITY_EXT_INDEX)
T3848 000:202.728   Value=0x00000000
T3848 000:202.737 - 0.018ms returns 0x00
T3848 000:202.748 JLINK_SetResetType(JLINKARM_CM3_RESET_TYPE_NORMAL)
T3848 000:202.754 - 0.009ms returns JLINKARM_CM3_RESET_TYPE_NORMAL
T3848 000:202.762 JLINK_Reset()
T3848 000:202.778   CPU is running
T3848 000:202.788   CPU_WriteMem(4 bytes @ 0xE000EDF0)
T3848 000:203.032   CPU is running
T3848 000:203.046   CPU_WriteMem(4 bytes @ 0xE000EDFC)
T3848 000:206.161   Reset: Halt core after reset via DEMCR.VC_CORERESET.
T3848 000:208.728   Reset: Reset device via AIRCR.SYSRESETREQ.
T3848 000:208.747   CPU is running
T3848 000:208.758   CPU_WriteMem(4 bytes @ 0xE000ED0C)
T3848 000:261.456   CPU_ReadMem(4 bytes @ 0xE000EDF0)
T3848 000:261.820   CPU_ReadMem(4 bytes @ 0xE000EDF0)
T3848 000:262.171   CPU is running
T3848 000:262.196   CPU_WriteMem(4 bytes @ 0xE000EDF0)
T3848 000:262.514   CPU is running
T3848 000:262.538   CPU_WriteMem(4 bytes @ 0xE000EDFC)
T3848 000:268.425   CPU_ReadMem(4 bytes @ 0xE000EDF0)
T3848 000:270.225   CPU_WriteMem(4 bytes @ 0xE000EDFC)
T3848 000:270.564   CPU_WriteMem(4 bytes @ 0xE0001028)
T3848 000:270.966   CPU_WriteMem(4 bytes @ 0xE0001038)
T3848 000:271.287   CPU_WriteMem(4 bytes @ 0xE0001048)
T3848 000:271.661   CPU_WriteMem(4 bytes @ 0xE0001058)
T3848 000:271.934   CPU_WriteMem(4 bytes @ 0xE0002000)
T3848 000:272.223   CPU_ReadMem(4 bytes @ 0xE000EDFC)
T3848 000:272.507   CPU_ReadMem(4 bytes @ 0xE0001000)
T3848 000:272.791 - 70.035ms
T3848 000:272.809 JLINK_Halt()
T3848 000:272.816 - 0.009ms returns 0x00
T3848 000:272.825 JLINK_ReadMemU32(0xE000EDF0, 0x0001 Items, ...)
T3848 000:272.837   CPU_ReadMem(4 bytes @ 0xE000EDF0)
T3848 000:273.118   Data:  03 00 03 00
T3848 000:273.132    - DHCSR
T3848 000:273.140 - 0.318ms returns 1
T3848 000:273.153 JLINK_WriteU32(0xE000EDF0, 0xA05F0003)
T3848 000:273.160    - DHCSR
T3848 000:273.178   CPU_WriteMem(4 bytes @ 0xE000EDF0)
T3848 000:273.393 - 0.247ms returns 0
T3848 000:273.409 JLINK_WriteU32(0xE000EDFC, 0x01000000)
T3848 000:273.417    - DEMCR
T3848 000:273.430   CPU_WriteMem(4 bytes @ 0xE000EDFC)
T3848 000:273.653 - 0.250ms returns 0
T3848 000:284.498 JLINK_GetHWStatus(...)
T3848 000:284.743 - 0.253ms returns 0x00
T3848 000:292.454 JLINK_GetNumBPUnits(Type = 0xFFFFFF00)
T3848 000:292.469 - 0.017ms returns 0x06
T3848 000:292.478 JLINK_GetNumBPUnits(Type = 0xF0)
T3848 000:292.484 - 0.009ms returns 0x2000
T3848 000:292.492 JLINK_GetNumWPUnits()
T3848 000:292.498 - 0.009ms returns 0x04
T3848 000:301.215 JLINK_GetSpeed()
T3848 000:301.234 - 0.022ms returns 0x2710
T3848 000:306.142 JLINK_ReadMemU32(0xE000E004, 0x0001 Items, ...)
T3848 000:306.168   CPU_ReadMem(4 bytes @ 0xE000E004)
T3848 000:306.505   Data:  01 00 00 00
T3848 000:306.520 - 0.381ms returns 1
T3848 000:306.531 JLINK_ReadMemU32(0xE000E004, 0x0001 Items, ...)
T3848 000:306.542   CPU_ReadMem(4 bytes @ 0xE000E004)
T3848 000:306.822   Data:  01 00 00 00
T3848 000:306.835 - 0.307ms returns 1
T3848 000:306.845 JLINK_WriteMemEx(0xE0001000, 0x001C Bytes, ..., Flags = 0x02000004)
T3848 000:306.852   Data:  01 00 00 00 00 00 00 00 00 00 00 00 00 00 00 00 ...
T3848 000:307.299   CPU_WriteMem(28 bytes @ 0xE0001000)
T3848 000:307.856 - 1.018ms returns 0x1C
T3848 000:307.873 JLINK_Halt()
T3848 000:307.880 - 0.009ms returns 0x00
T3848 000:307.888 JLINK_IsHalted()
T3848 000:307.895 - 0.009ms returns TRUE
T3848 000:310.711 JLINK_WriteMem(0x20000000, 0x0164 Bytes, ...)
T3848 000:310.723   Data:  00 BE 0A E0 0D 78 2D 06 68 40 08 24 40 00 00 D3 ...
T3848 000:311.185   CPU_WriteMem(356 bytes @ 0x20000000)
T3848 000:312.489 - 1.786ms returns 0x164
T3848 000:312.527 JLINK_WriteReg(R0, 0x08000000)
T3848 000:312.537 - 0.013ms returns 0x00
T3848 000:312.545 JLINK_WriteReg(R1, 0x00B71B00)
T3848 000:312.552 - 0.010ms returns 0x00
T3848 000:312.560 JLINK_WriteReg(R2, 0x00000001)
T3848 000:312.567 - 0.012ms returns 0x00
T3848 000:312.579 JLINK_WriteReg(R3, 0x00000000)
T3848 000:312.586 - 0.010ms returns 0x00
T3848 000:312.594 JLINK_WriteReg(R4, 0x00000000)
T3848 000:312.601 - 0.009ms returns 0x00
T3848 000:312.609 JLINK_WriteReg(R5, 0x00000000)
T3848 000:312.615 - 0.009ms returns 0x00
T3848 000:312.623 JLINK_WriteReg(R6, 0x00000000)
T3848 000:312.630 - 0.009ms returns 0x00
T3848 000:312.638 JLINK_WriteReg(R7, 0x00000000)
T3848 000:312.644 - 0.009ms returns 0x00
T3848 000:312.652 JLINK_WriteReg(R8, 0x00000000)
T3848 000:312.659 - 0.009ms returns 0x00
T3848 000:312.667 JLINK_WriteReg(R9, 0x20000160)
T3848 000:312.674 - 0.009ms returns 0x00
T3848 000:312.682 JLINK_WriteReg(R10, 0x00000000)
T3848 000:312.688 - 0.009ms returns 0x00
T3848 000:312.696 JLINK_WriteReg(R11, 0x00000000)
T3848 000:312.703 - 0.009ms returns 0x00
T3848 000:312.711 JLINK_WriteReg(R12, 0x00000000)
T3848 000:312.717 - 0.009ms returns 0x00
T3848 000:312.725 JLINK_WriteReg(R13 (SP), 0x20001000)
T3848 000:312.732 - 0.010ms returns 0x00
T3848 000:312.740 JLINK_WriteReg(R14, 0x20000001)
T3848 000:312.747 - 0.009ms returns 0x00
T3848 000:312.755 JLINK_WriteReg(R15 (PC), 0x20000038)
T3848 000:312.762 - 0.009ms returns 0x00
T3848 000:312.770 JLINK_WriteReg(XPSR, 0x01000000)
T3848 000:312.776 - 0.009ms returns 0x00
T3848 000:312.784 JLINK_WriteReg(MSP, 0x20001000)
T3848 000:312.791 - 0.009ms returns 0x00
T3848 000:312.799 JLINK_WriteReg(PSP, 0x20001000)
T3848 000:312.806 - 0.009ms returns 0x00
T3848 000:312.814 JLINK_WriteReg(CFBP, 0x00000000)
T3848 000:312.823 - 0.012ms returns 0x00
T3848 000:312.832   JLINK_SetBPEx(Addr = 0x20000000, Type = 0xFFFFFFF2)
T3848 000:312.845   CPU_ReadMem(2 bytes @ 0x20000000)
T3848 000:313.348 - 0.523ms returns 0x00000001
T3848 000:313.362 JLINK_Go()
T3848 000:313.372   CPU_WriteMem(2 bytes @ 0x20000000)
T3848 000:313.648   CPU_ReadMem(4 bytes @ 0xE0001000)
T3848 000:313.964   CPU_WriteMem(4 bytes @ 0xE0002008)
T3848 000:313.978   CPU_WriteMem(4 bytes @ 0xE000200C)
T3848 000:313.988   CPU_WriteMem(4 bytes @ 0xE0002010)
T3848 000:313.997   CPU_WriteMem(4 bytes @ 0xE0002014)
T3848 000:314.006   CPU_WriteMem(4 bytes @ 0xE0002018)
T3848 000:314.015   CPU_WriteMem(4 bytes @ 0xE000201C)
T3848 000:314.878   CPU_WriteMem(4 bytes @ 0xE0001004)
T3848 000:316.496 - 3.141ms
T3848 000:316.511 JLINK_IsHalted()
T3848 000:317.796   CPU_ReadMem(2 bytes @ 0x20000000)
T3848 000:318.139 - 1.635ms returns TRUE
T3848 000:318.154 JLINK_ReadReg(R15 (PC))
T3848 000:318.162 - 0.011ms returns 0x20000000
T3848 000:318.171 JLINK_ClrBPEx(BPHandle = 0x00000001)
T3848 000:318.178 - 0.010ms returns 0x00
T3848 000:318.186 JLINK_ReadReg(R0)
T3848 000:318.192 - 0.009ms returns 0x00000000
T3848 000:318.486 JLINK_WriteReg(R0, 0x08000000)
T3848 000:318.496 - 0.014ms returns 0x00
T3848 000:318.505 JLINK_WriteReg(R1, 0x00B71B00)
T3848 000:318.511 - 0.009ms returns 0x00
T3848 000:318.519 JLINK_WriteReg(R2, 0x00000001)
T3848 000:318.525 - 0.009ms returns 0x00
T3848 000:318.533 JLINK_WriteReg(R3, 0x00000000)
T3848 000:318.540 - 0.009ms returns 0x00
T3848 000:318.547 JLINK_WriteReg(R4, 0x00000000)
T3848 000:318.554 - 0.009ms returns 0x00
T3848 000:318.562 JLINK_WriteReg(R5, 0x00000000)
T3848 000:318.568 - 0.009ms returns 0x00
T3848 000:318.576 JLINK_WriteReg(R6, 0x00000000)
T3848 000:318.582 - 0.009ms returns 0x00
T3848 000:318.590 JLINK_WriteReg(R7, 0x00000000)
T3848 000:318.596 - 0.009ms returns 0x00
T3848 000:318.604 JLINK_WriteReg(R8, 0x00000000)
T3848 000:318.610 - 0.009ms returns 0x00
T3848 000:318.618 JLINK_WriteReg(R9, 0x20000160)
T3848 000:318.624 - 0.009ms returns 0x00
T3848 000:318.632 JLINK_WriteReg(R10, 0x00000000)
T3848 000:318.639 - 0.009ms returns 0x00
T3848 000:318.647 JLINK_WriteReg(R11, 0x00000000)
T3848 000:318.653 - 0.009ms returns 0x00
T3848 000:318.661 JLINK_WriteReg(R12, 0x00000000)
T3848 000:318.667 - 0.009ms returns 0x00
T3848 000:318.675 JLINK_WriteReg(R13 (SP), 0x20001000)
T3848 000:318.682 - 0.009ms returns 0x00
T3848 000:318.690 JLINK_WriteReg(R14, 0x20000001)
T3848 000:318.730 - 0.045ms returns 0x00
T3848 000:318.740 JLINK_WriteReg(R15 (PC), 0x2000007C)
T3848 000:318.747 - 0.009ms returns 0x00
T3848 000:318.755 JLINK_WriteReg(XPSR, 0x01000000)
T3848 000:318.761 - 0.009ms returns 0x00
T3848 000:318.769 JLINK_WriteReg(MSP, 0x20001000)
T3848 000:318.776 - 0.009ms returns 0x00
T3848 000:318.783 JLINK_WriteReg(PSP, 0x20001000)
T3848 000:318.790 - 0.009ms returns 0x00
T3848 000:318.798 JLINK_WriteReg(CFBP, 0x00000000)
T3848 000:318.829 - 0.035ms returns 0x00
T3848 000:318.839   JLINK_SetBPEx(Addr = 0x20000000, Type = 0xFFFFFFF2)
T3848 000:318.849 - 0.013ms returns 0x00000002
T3848 000:318.857 JLINK_Go()
T3848 000:318.868   CPU_ReadMem(4 bytes @ 0xE0001000)
T3848 000:320.530 - 1.680ms
T3848 000:320.545 JLINK_IsHalted()
T3848 000:320.825 - 0.286ms returns FALSE
T3848 000:332.980 JLINK_IsHalted()
T3848 000:333.349 - 0.378ms returns FALSE
T3848 000:334.967 JLINK_IsHalted()
T3848 000:335.301 - 0.343ms returns FALSE
T3848 000:336.962 JLINK_IsHalted()
T3848 000:337.275 - 0.322ms returns FALSE
T3848 000:338.927 JLINK_IsHalted()
T3848 000:339.251 - 0.333ms returns FALSE
T3848 000:340.914 JLINK_IsHalted()
T3848 000:341.222 - 0.315ms returns FALSE
T3848 000:342.911 JLINK_IsHalted()
T3848 000:344.382   CPU_ReadMem(2 bytes @ 0x20000000)
T3848 000:344.681 - 1.777ms returns TRUE
T3848 000:344.697 JLINK_ReadReg(R15 (PC))
T3848 000:344.706 - 0.013ms returns 0x20000000
T3848 000:344.715 JLINK_ClrBPEx(BPHandle = 0x00000002)
T3848 000:344.722 - 0.010ms returns 0x00
T3848 000:344.731 JLINK_ReadReg(R0)
T3848 000:344.746 - 0.018ms returns 0x00000000
T3848 000:397.867 JLINK_WriteReg(R0, 0x00000001)
T3848 000:397.905 - 0.045ms returns 0x00
T3848 000:397.921 JLINK_WriteReg(R1, 0x00B71B00)
T3848 000:397.933 - 0.017ms returns 0x00
T3848 000:397.947 JLINK_WriteReg(R2, 0x00000001)
T3848 000:397.958 - 0.016ms returns 0x00
T3848 000:397.972 JLINK_WriteReg(R3, 0x00000000)
T3848 000:397.983 - 0.016ms returns 0x00
T3848 000:397.997 JLINK_WriteReg(R4, 0x00000000)
T3848 000:398.009 - 0.016ms returns 0x00
T3848 000:398.022 JLINK_WriteReg(R5, 0x00000000)
T3848 000:398.034 - 0.016ms returns 0x00
T3848 000:398.047 JLINK_WriteReg(R6, 0x00000000)
T3848 000:398.059 - 0.017ms returns 0x00
T3848 000:398.073 JLINK_WriteReg(R7, 0x00000000)
T3848 000:398.084 - 0.016ms returns 0x00
T3848 000:398.098 JLINK_WriteReg(R8, 0x00000000)
T3848 000:398.109 - 0.016ms returns 0x00
T3848 000:398.123 JLINK_WriteReg(R9, 0x20000160)
T3848 000:398.134 - 0.016ms returns 0x00
T3848 000:398.148 JLINK_WriteReg(R10, 0x00000000)
T3848 000:398.159 - 0.016ms returns 0x00
T3848 000:398.173 JLINK_WriteReg(R11, 0x00000000)
T3848 000:398.184 - 0.017ms returns 0x00
T3848 000:398.198 JLINK_WriteReg(R12, 0x00000000)
T3848 000:398.209 - 0.019ms returns 0x00
T3848 000:398.225 JLINK_WriteReg(R13 (SP), 0x20001000)
T3848 000:398.238 - 0.018ms returns 0x00
T3848 000:398.252 JLINK_WriteReg(R14, 0x20000001)
T3848 000:398.263 - 0.016ms returns 0x00
T3848 000:398.277 JLINK_WriteReg(R15 (PC), 0x2000006A)
T3848 000:398.289 - 0.017ms returns 0x00
T3848 000:398.303 JLINK_WriteReg(XPSR, 0x01000000)
T3848 000:398.314 - 0.016ms returns 0x00
T3848 000:398.328 JLINK_WriteReg(MSP, 0x20001000)
T3848 000:398.339 - 0.016ms returns 0x00
T3848 000:398.353 JLINK_WriteReg(PSP, 0x20001000)
T3848 000:398.364 - 0.016ms returns 0x00
T3848 000:398.378 JLINK_WriteReg(CFBP, 0x00000000)
T3848 000:398.389 - 0.016ms returns 0x00
T3848 000:398.404   JLINK_SetBPEx(Addr = 0x20000000, Type = 0xFFFFFFF2)
T3848 000:398.423 - 0.025ms returns 0x00000003
T3848 000:398.437 JLINK_Go()
T3848 000:398.463   CPU_ReadMem(4 bytes @ 0xE0001000)
T3848 000:400.422 - 2.009ms
T3848 000:400.462 JLINK_IsHalted()
T3848 000:401.997   CPU_ReadMem(2 bytes @ 0x20000000)
T3848 000:402.297 - 1.842ms returns TRUE
T3848 000:402.316 JLINK_ReadReg(R15 (PC))
T3848 000:402.325 - 0.013ms returns 0x20000000
T3848 000:402.334 JLINK_ClrBPEx(BPHandle = 0x00000003)
T3848 000:402.341 - 0.010ms returns 0x00
T3848 000:402.349 JLINK_ReadReg(R0)
T3848 000:402.398 - 0.053ms returns 0x00000000
T3848 000:408.388 JLINK_WriteMem(0x20000000, 0x0164 Bytes, ...)
T3848 000:408.400   Data:  00 BE 0A E0 0D 78 2D 06 68 40 08 24 40 00 00 D3 ...
T3848 000:408.417   CPU_WriteMem(356 bytes @ 0x20000000)
T3848 000:409.589 - 1.208ms returns 0x164
T3848 000:409.624 JLINK_WriteReg(R0, 0x08000000)
T3848 000:409.635 - 0.013ms returns 0x00
T3848 000:409.643 JLINK_WriteReg(R1, 0x00B71B00)
T3848 000:409.650 - 0.009ms returns 0x00
T3848 000:409.658 JLINK_WriteReg(R2, 0x00000002)
T3848 000:409.664 - 0.009ms returns 0x00
T3848 000:409.672 JLINK_WriteReg(R3, 0x00000000)
T3848 000:409.678 - 0.009ms returns 0x00
T3848 000:409.686 JLINK_WriteReg(R4, 0x00000000)
T3848 000:409.692 - 0.009ms returns 0x00
T3848 000:409.700 JLINK_WriteReg(R5, 0x00000000)
T3848 000:409.706 - 0.009ms returns 0x00
T3848 000:409.714 JLINK_WriteReg(R6, 0x00000000)
T3848 000:409.720 - 0.009ms returns 0x00
T3848 000:409.728 JLINK_WriteReg(R7, 0x00000000)
T3848 000:409.734 - 0.009ms returns 0x00
T3848 000:409.742 JLINK_WriteReg(R8, 0x00000000)
T3848 000:409.749 - 0.009ms returns 0x00
T3848 000:409.757 JLINK_WriteReg(R9, 0x20000160)
T3848 000:409.763 - 0.009ms returns 0x00
T3848 000:409.771 JLINK_WriteReg(R10, 0x00000000)
T3848 000:409.777 - 0.009ms returns 0x00
T3848 000:409.785 JLINK_WriteReg(R11, 0x00000000)
T3848 000:409.792 - 0.009ms returns 0x00
T3848 000:409.800 JLINK_WriteReg(R12, 0x00000000)
T3848 000:409.806 - 0.009ms returns 0x00
T3848 000:409.814 JLINK_WriteReg(R13 (SP), 0x20001000)
T3848 000:409.821 - 0.010ms returns 0x00
T3848 000:409.829 JLINK_WriteReg(R14, 0x20000001)
T3848 000:409.836 - 0.009ms returns 0x00
T3848 000:409.844 JLINK_WriteReg(R15 (PC), 0x20000038)
T3848 000:409.851 - 0.010ms returns 0x00
T3848 000:409.859 JLINK_WriteReg(XPSR, 0x01000000)
T3848 000:409.865 - 0.010ms returns 0x00
T3848 000:409.873 JLINK_WriteReg(MSP, 0x20001000)
T3848 000:409.880 - 0.009ms returns 0x00
T3848 000:409.888 JLINK_WriteReg(PSP, 0x20001000)
T3848 000:409.894 - 0.009ms returns 0x00
T3848 000:409.902 JLINK_WriteReg(CFBP, 0x00000000)
T3848 000:409.909 - 0.009ms returns 0x00
T3848 000:409.918   JLINK_SetBPEx(Addr = 0x20000000, Type = 0xFFFFFFF2)
T3848 000:409.930   CPU_ReadMem(2 bytes @ 0x20000000)
T3848 000:410.249 - 0.340ms returns 0x00000004
T3848 000:410.266 JLINK_Go()
T3848 000:410.276   CPU_WriteMem(2 bytes @ 0x20000000)
T3848 000:410.593   CPU_ReadMem(4 bytes @ 0xE0001000)
T3848 000:412.507 - 2.249ms
T3848 000:412.523 JLINK_IsHalted()
T3848 000:413.972   CPU_ReadMem(2 bytes @ 0x20000000)
T3848 000:414.271 - 1.756ms returns TRUE
T3848 000:414.287 JLINK_ReadReg(R15 (PC))
T3848 000:414.296 - 0.012ms returns 0x20000000
T3848 000:414.305 JLINK_ClrBPEx(BPHandle = 0x00000004)
T3848 000:414.312 - 0.010ms returns 0x00
T3848 000:414.320 JLINK_ReadReg(R0)
T3848 000:414.327 - 0.009ms returns 0x00000000
T3848 000:414.570 JLINK_WriteMem(0x20000164, 0x029C Bytes, ...)
T3848 000:414.580   Data:  88 04 00 20 45 01 00 08 2F 0E 00 08 49 05 00 08 ...
T3848 000:414.596   CPU_WriteMem(668 bytes @ 0x20000164)
T3848 000:416.481 - 1.918ms returns 0x29C
T3848 000:416.496 JLINK_WriteMem(0x20000400, 0x0164 Bytes, ...)
T3848 000:416.504   Data:  AC 42 1F D0 A4 B9 00 F0 AF FC 00 27 63 2F 1E D8 ...
T3848 000:416.519   CPU_WriteMem(356 bytes @ 0x20000400)
T3848 000:417.656 - 1.167ms returns 0x164
T3848 000:417.674 JLINK_WriteReg(R0, 0x08000000)
T3848 000:417.686 - 0.015ms returns 0x00
T3848 000:417.695 JLINK_WriteReg(R1, 0x00000400)
T3848 000:417.702 - 0.010ms returns 0x00
T3848 000:417.710 JLINK_WriteReg(R2, 0x20000164)
T3848 000:417.716 - 0.009ms returns 0x00
T3848 000:417.724 JLINK_WriteReg(R3, 0x00000000)
T3848 000:417.730 - 0.009ms returns 0x00
T3848 000:417.738 JLINK_WriteReg(R4, 0x00000000)
T3848 000:417.745 - 0.009ms returns 0x00
T3848 000:417.752 JLINK_WriteReg(R5, 0x00000000)
T3848 000:417.759 - 0.009ms returns 0x00
T3848 000:417.767 JLINK_WriteReg(R6, 0x00000000)
T3848 000:417.773 - 0.009ms returns 0x00
T3848 000:417.781 JLINK_WriteReg(R7, 0x00000000)
T3848 000:417.790 - 0.013ms returns 0x00
T3848 000:417.799 JLINK_WriteReg(R8, 0x00000000)
T3848 000:417.805 - 0.009ms returns 0x00
T3848 000:417.813 JLINK_WriteReg(R9, 0x20000160)
T3848 000:417.819 - 0.009ms returns 0x00
T3848 000:417.827 JLINK_WriteReg(R10, 0x00000000)
T3848 000:417.834 - 0.009ms returns 0x00
T3848 000:417.841 JLINK_WriteReg(R11, 0x00000000)
T3848 000:417.848 - 0.009ms returns 0x00
T3848 000:417.856 JLINK_WriteReg(R12, 0x00000000)
T3848 000:417.862 - 0.009ms returns 0x00
T3848 000:417.870 JLINK_WriteReg(R13 (SP), 0x20001000)
T3848 000:417.877 - 0.009ms returns 0x00
T3848 000:417.885 JLINK_WriteReg(R14, 0x20000001)
T3848 000:417.891 - 0.009ms returns 0x00
T3848 000:417.899 JLINK_WriteReg(R15 (PC), 0x200000F4)
T3848 000:417.905 - 0.009ms returns 0x00
T3848 000:417.913 JLINK_WriteReg(XPSR, 0x01000000)
T3848 000:417.920 - 0.009ms returns 0x00
T3848 000:417.927 JLINK_WriteReg(MSP, 0x20001000)
T3848 000:417.934 - 0.009ms returns 0x00
T3848 000:417.942 JLINK_WriteReg(PSP, 0x20001000)
T3848 000:417.948 - 0.009ms returns 0x00
T3848 000:417.956 JLINK_WriteReg(CFBP, 0x00000000)
T3848 000:417.962 - 0.009ms returns 0x00
T3848 000:417.971   JLINK_SetBPEx(Addr = 0x20000000, Type = 0xFFFFFFF2)
T3848 000:417.980 - 0.013ms returns 0x00000005
T3848 000:417.988 JLINK_Go()
T3848 000:418.000   CPU_ReadMem(4 bytes @ 0xE0001000)
T3848 000:419.738 - 1.756ms
T3848 000:419.753 JLINK_IsHalted()
T3848 000:420.112 - 0.368ms returns FALSE
T3848 000:423.287 JLINK_IsHalted()
T3848 000:423.582 - 0.302ms returns FALSE
T3848 000:425.277 JLINK_IsHalted()
T3848 000:425.615 - 0.347ms returns FALSE
T3848 000:427.155 JLINK_IsHalted()
T3848 000:427.449 - 0.301ms returns FALSE
T3848 000:429.254 JLINK_IsHalted()
T3848 000:429.549 - 0.303ms returns FALSE
T3848 000:431.249 JLINK_IsHalted()
T3848 000:431.579 - 0.337ms returns FALSE
T3848 000:433.327 JLINK_IsHalted()
T3848 000:433.648 - 0.331ms returns FALSE
T3848 000:435.321 JLINK_IsHalted()
T3848 000:435.626 - 0.317ms returns FALSE
T3848 000:437.321 JLINK_IsHalted()
T3848 000:437.653 - 0.340ms returns FALSE
T3848 000:439.271 JLINK_IsHalted()
T3848 000:439.581 - 0.319ms returns FALSE
T3848 000:441.281 JLINK_IsHalted()
T3848 000:441.583 - 0.310ms returns FALSE
T3848 000:443.267 JLINK_IsHalted()
T3848 000:443.571 - 0.314ms returns FALSE
T3848 000:445.134 JLINK_IsHalted()
T3848 000:445.470 - 0.346ms returns FALSE
T3848 000:447.237 JLINK_IsHalted()
T3848 000:447.509 - 0.281ms returns FALSE
T3848 000:449.397 JLINK_IsHalted()
T3848 000:449.702 - 0.314ms returns FALSE
T3848 000:453.411 JLINK_IsHalted()
T3848 000:454.966   CPU_ReadMem(2 bytes @ 0x20000000)
T3848 000:455.320 - 1.918ms returns TRUE
T3848 000:455.339 JLINK_ReadReg(R15 (PC))
T3848 000:455.349 - 0.015ms returns 0x20000000
T3848 000:455.360 JLINK_ClrBPEx(BPHandle = 0x00000005)
T3848 000:455.368 - 0.012ms returns 0x00
T3848 000:455.378 JLINK_ReadReg(R0)
T3848 000:455.386 - 0.011ms returns 0x00000000
T3848 000:455.897 JLINK_WriteMem(0x20000164, 0x029C Bytes, ...)
T3848 000:455.909   Data:  88 60 C8 68 10 43 C8 60 10 BD 02 79 00 68 11 43 ...
T3848 000:455.927   CPU_WriteMem(668 bytes @ 0x20000164)
T3848 000:458.068 - 2.181ms returns 0x29C
T3848 000:458.087 JLINK_WriteMem(0x20000400, 0x0164 Bytes, ...)
T3848 000:458.096   Data:  B0 FB F2 F0 0A 46 6F F3 1F 32 B2 FA 82 F2 52 09 ...
T3848 000:458.113   CPU_WriteMem(356 bytes @ 0x20000400)
T3848 000:459.313 - 1.235ms returns 0x164
T3848 000:459.335 JLINK_WriteReg(R0, 0x08000400)
T3848 000:459.346 - 0.015ms returns 0x00
T3848 000:459.356 JLINK_WriteReg(R1, 0x00000400)
T3848 000:459.364 - 0.011ms returns 0x00
T3848 000:459.373 JLINK_WriteReg(R2, 0x20000164)
T3848 000:459.381 - 0.011ms returns 0x00
T3848 000:459.390 JLINK_WriteReg(R3, 0x00000000)
T3848 000:459.397 - 0.011ms returns 0x00
T3848 000:459.407 JLINK_WriteReg(R4, 0x00000000)
T3848 000:459.414 - 0.011ms returns 0x00
T3848 000:459.423 JLINK_WriteReg(R5, 0x00000000)
T3848 000:459.430 - 0.011ms returns 0x00
T3848 000:459.440 JLINK_WriteReg(R6, 0x00000000)
T3848 000:459.447 - 0.014ms returns 0x00
T3848 000:459.461 JLINK_WriteReg(R7, 0x00000000)
T3848 000:459.469 - 0.011ms returns 0x00
T3848 000:459.479 JLINK_WriteReg(R8, 0x00000000)
T3848 000:459.487 - 0.011ms returns 0x00
T3848 000:459.496 JLINK_WriteReg(R9, 0x20000160)
T3848 000:459.503 - 0.011ms returns 0x00
T3848 000:459.512 JLINK_WriteReg(R10, 0x00000000)
T3848 000:459.520 - 0.011ms returns 0x00
T3848 000:459.529 JLINK_WriteReg(R11, 0x00000000)
T3848 000:459.537 - 0.011ms returns 0x00
T3848 000:459.547 JLINK_WriteReg(R12, 0x00000000)
T3848 000:459.554 - 0.011ms returns 0x00
T3848 000:459.564 JLINK_WriteReg(R13 (SP), 0x20001000)
T3848 000:459.572 - 0.012ms returns 0x00
T3848 000:459.581 JLINK_WriteReg(R14, 0x20000001)
T3848 000:459.589 - 0.011ms returns 0x00
T3848 000:459.599 JLINK_WriteReg(R15 (PC), 0x200000F4)
T3848 000:459.606 - 0.011ms returns 0x00
T3848 000:459.616 JLINK_WriteReg(XPSR, 0x01000000)
T3848 000:459.624 - 0.011ms returns 0x00
T3848 000:459.633 JLINK_WriteReg(MSP, 0x20001000)
T3848 000:459.641 - 0.011ms returns 0x00
T3848 000:459.650 JLINK_WriteReg(PSP, 0x20001000)
T3848 000:459.658 - 0.011ms returns 0x00
T3848 000:459.667 JLINK_WriteReg(CFBP, 0x00000000)
T3848 000:459.675 - 0.011ms returns 0x00
T3848 000:459.685   JLINK_SetBPEx(Addr = 0x20000000, Type = 0xFFFFFFF2)
T3848 000:459.697 - 0.016ms returns 0x00000006
T3848 000:459.707 JLINK_Go()
T3848 000:459.721   CPU_ReadMem(4 bytes @ 0xE0001000)
T3848 000:461.443 - 1.745ms
T3848 000:461.461 JLINK_IsHalted()
T3848 000:461.753 - 0.301ms returns FALSE
T3848 000:463.389 JLINK_IsHalted()
T3848 000:463.680 - 0.300ms returns FALSE
T3848 000:465.384 JLINK_IsHalted()
T3848 000:465.676 - 0.300ms returns FALSE
T3848 000:467.268 JLINK_IsHalted()
T3848 000:467.526 - 0.265ms returns FALSE
T3848 000:469.262 JLINK_IsHalted()
T3848 000:469.493 - 0.239ms returns FALSE
T3848 000:471.230 JLINK_IsHalted()
T3848 000:471.492 - 0.270ms returns FALSE
T3848 000:473.227 JLINK_IsHalted()
T3848 000:473.488 - 0.269ms returns FALSE
T3848 000:475.219 JLINK_IsHalted()
T3848 000:475.474 - 0.263ms returns FALSE
T3848 000:477.183 JLINK_IsHalted()
T3848 000:477.443 - 0.268ms returns FALSE
T3848 000:479.247 JLINK_IsHalted()
T3848 000:479.508 - 0.269ms returns FALSE
T3848 000:481.236 JLINK_IsHalted()
T3848 000:481.496 - 0.267ms returns FALSE
T3848 000:483.231 JLINK_IsHalted()
T3848 000:483.485 - 0.261ms returns FALSE
T3848 000:485.193 JLINK_IsHalted()
T3848 000:485.476 - 0.292ms returns FALSE
T3848 000:487.373 JLINK_IsHalted()
T3848 000:487.706 - 0.341ms returns FALSE
T3848 000:489.364 JLINK_IsHalted()
T3848 000:489.694 - 0.338ms returns FALSE
T3848 000:491.333 JLINK_IsHalted()
T3848 000:491.635 - 0.311ms returns FALSE
T3848 000:493.323 JLINK_IsHalted()
T3848 000:494.854   CPU_ReadMem(2 bytes @ 0x20000000)
T3848 000:495.205 - 1.890ms returns TRUE
T3848 000:495.222 JLINK_ReadReg(R15 (PC))
T3848 000:495.233 - 0.013ms returns 0x20000000
T3848 000:495.241 JLINK_ClrBPEx(BPHandle = 0x00000006)
T3848 000:495.248 - 0.010ms returns 0x00
T3848 000:495.257 JLINK_ReadReg(R0)
T3848 000:495.263 - 0.009ms returns 0x00000000
T3848 000:495.754 JLINK_WriteMem(0x20000164, 0x029C Bytes, ...)
T3848 000:495.768   Data:  AD FE 30 B9 38 88 41 1E 00 28 39 80 F5 D1 0E 20 ...
T3848 000:495.785   CPU_WriteMem(668 bytes @ 0x20000164)
T3848 000:497.764 - 2.019ms returns 0x29C
T3848 000:497.781 JLINK_WriteMem(0x20000400, 0x0164 Bytes, ...)
T3848 000:497.788   Data:  0F 00 0F 28 02 D1 38 46 01 F0 1C F9 01 34 EF E7 ...
T3848 000:497.803   CPU_WriteMem(356 bytes @ 0x20000400)
T3848 000:499.117 - 1.358ms returns 0x164
T3848 000:499.150 JLINK_WriteReg(R0, 0x08000800)
T3848 000:499.160 - 0.013ms returns 0x00
T3848 000:499.168 JLINK_WriteReg(R1, 0x00000400)
T3848 000:499.175 - 0.010ms returns 0x00
T3848 000:499.183 JLINK_WriteReg(R2, 0x20000164)
T3848 000:499.190 - 0.009ms returns 0x00
T3848 000:499.198 JLINK_WriteReg(R3, 0x00000000)
T3848 000:499.204 - 0.009ms returns 0x00
T3848 000:499.212 JLINK_WriteReg(R4, 0x00000000)
T3848 000:499.218 - 0.009ms returns 0x00
T3848 000:499.229 JLINK_WriteReg(R5, 0x00000000)
T3848 000:499.237 - 0.011ms returns 0x00
T3848 000:499.245 JLINK_WriteReg(R6, 0x00000000)
T3848 000:499.252 - 0.009ms returns 0x00
T3848 000:499.259 JLINK_WriteReg(R7, 0x00000000)
T3848 000:499.266 - 0.009ms returns 0x00
T3848 000:499.274 JLINK_WriteReg(R8, 0x00000000)
T3848 000:499.280 - 0.009ms returns 0x00
T3848 000:499.288 JLINK_WriteReg(R9, 0x20000160)
T3848 000:499.294 - 0.009ms returns 0x00
T3848 000:499.302 JLINK_WriteReg(R10, 0x00000000)
T3848 000:499.308 - 0.009ms returns 0x00
T3848 000:499.316 JLINK_WriteReg(R11, 0x00000000)
T3848 000:499.323 - 0.009ms returns 0x00
T3848 000:499.331 JLINK_WriteReg(R12, 0x00000000)
T3848 000:499.338 - 0.009ms returns 0x00
T3848 000:499.346 JLINK_WriteReg(R13 (SP), 0x20001000)
T3848 000:499.353 - 0.010ms returns 0x00
T3848 000:499.361 JLINK_WriteReg(R14, 0x20000001)
T3848 000:499.368 - 0.009ms returns 0x00
T3848 000:499.375 JLINK_WriteReg(R15 (PC), 0x200000F4)
T3848 000:499.382 - 0.009ms returns 0x00
T3848 000:499.390 JLINK_WriteReg(XPSR, 0x01000000)
T3848 000:499.397 - 0.009ms returns 0x00
T3848 000:499.405 JLINK_WriteReg(MSP, 0x20001000)
T3848 000:499.411 - 0.009ms returns 0x00
T3848 000:499.419 JLINK_WriteReg(PSP, 0x20001000)
T3848 000:499.426 - 0.009ms returns 0x00
T3848 000:499.434 JLINK_WriteReg(CFBP, 0x00000000)
T3848 000:499.440 - 0.009ms returns 0x00
T3848 000:499.449   JLINK_SetBPEx(Addr = 0x20000000, Type = 0xFFFFFFF2)
T3848 000:499.459 - 0.013ms returns 0x00000007
T3848 000:499.467 JLINK_Go()
T3848 000:499.480   CPU_ReadMem(4 bytes @ 0xE0001000)
T3848 000:501.657 - 2.197ms
T3848 000:501.672 JLINK_IsHalted()
T3848 000:502.016 - 0.351ms returns FALSE
T3848 000:503.293 JLINK_IsHalted()
T3848 000:503.599 - 0.314ms returns FALSE
T3848 000:505.297 JLINK_IsHalted()
T3848 000:505.534 - 0.244ms returns FALSE
T3848 000:507.120 JLINK_IsHalted()
T3848 000:507.416 - 0.304ms returns FALSE
T3848 000:509.267 JLINK_IsHalted()
T3848 000:509.568 - 0.308ms returns FALSE
T3848 000:511.120 JLINK_IsHalted()
T3848 000:511.406 - 0.294ms returns FALSE
T3848 000:513.261 JLINK_IsHalted()
T3848 000:513.530 - 0.276ms returns FALSE
T3848 000:515.254 JLINK_IsHalted()
T3848 000:515.547 - 0.300ms returns FALSE
T3848 000:517.251 JLINK_IsHalted()
T3848 000:517.565 - 0.321ms returns FALSE
T3848 000:519.241 JLINK_IsHalted()
T3848 000:519.532 - 0.299ms returns FALSE
T3848 000:521.243 JLINK_IsHalted()
T3848 000:521.561 - 0.326ms returns FALSE
T3848 000:523.244 JLINK_IsHalted()
T3848 000:523.557 - 0.321ms returns FALSE
T3848 000:525.216 JLINK_IsHalted()
T3848 000:525.451 - 0.244ms returns FALSE
T3848 000:527.076 JLINK_IsHalted()
T3848 000:527.323 - 0.256ms returns FALSE
T3848 000:529.035 JLINK_IsHalted()
T3848 000:529.312 - 0.286ms returns FALSE
T3848 000:536.048 JLINK_IsHalted()
T3848 000:537.362   CPU_ReadMem(2 bytes @ 0x20000000)
T3848 000:537.669 - 1.627ms returns TRUE
T3848 000:537.683 JLINK_ReadReg(R15 (PC))
T3848 000:537.692 - 0.012ms returns 0x20000000
T3848 000:537.700 JLINK_ClrBPEx(BPHandle = 0x00000007)
T3848 000:537.707 - 0.010ms returns 0x00
T3848 000:537.715 JLINK_ReadReg(R0)
T3848 000:537.722 - 0.010ms returns 0x00000000
T3848 000:538.142 JLINK_WriteMem(0x20000164, 0x029C Bytes, ...)
T3848 000:538.152   Data:  10 47 00 BF B0 B5 05 4C 80 25 40 20 01 21 65 60 ...
T3848 000:538.167   CPU_WriteMem(668 bytes @ 0x20000164)
T3848 000:539.991 - 1.857ms returns 0x29C
T3848 000:540.007 JLINK_WriteMem(0x20000400, 0x0164 Bytes, ...)
T3848 000:540.014   Data:  11 68 0C BF 21 EA 00 00 08 43 10 60 70 47 00 BF ...
T3848 000:540.028   CPU_WriteMem(356 bytes @ 0x20000400)
T3848 000:541.203 - 1.203ms returns 0x164
T3848 000:541.221 JLINK_WriteReg(R0, 0x08000C00)
T3848 000:541.231 - 0.013ms returns 0x00
T3848 000:541.239 JLINK_WriteReg(R1, 0x00000400)
T3848 000:541.245 - 0.009ms returns 0x00
T3848 000:541.253 JLINK_WriteReg(R2, 0x20000164)
T3848 000:541.260 - 0.009ms returns 0x00
T3848 000:541.268 JLINK_WriteReg(R3, 0x00000000)
T3848 000:541.274 - 0.009ms returns 0x00
T3848 000:541.285 JLINK_WriteReg(R4, 0x00000000)
T3848 000:541.292 - 0.010ms returns 0x00
T3848 000:541.300 JLINK_WriteReg(R5, 0x00000000)
T3848 000:541.307 - 0.009ms returns 0x00
T3848 000:541.314 JLINK_WriteReg(R6, 0x00000000)
T3848 000:541.321 - 0.009ms returns 0x00
T3848 000:541.328 JLINK_WriteReg(R7, 0x00000000)
T3848 000:541.335 - 0.009ms returns 0x00
T3848 000:541.343 JLINK_WriteReg(R8, 0x00000000)
T3848 000:541.349 - 0.009ms returns 0x00
T3848 000:541.357 JLINK_WriteReg(R9, 0x20000160)
T3848 000:541.363 - 0.009ms returns 0x00
T3848 000:541.371 JLINK_WriteReg(R10, 0x00000000)
T3848 000:541.377 - 0.009ms returns 0x00
T3848 000:541.385 JLINK_WriteReg(R11, 0x00000000)
T3848 000:541.392 - 0.009ms returns 0x00
T3848 000:541.399 JLINK_WriteReg(R12, 0x00000000)
T3848 000:541.406 - 0.009ms returns 0x00
T3848 000:541.413 JLINK_WriteReg(R13 (SP), 0x20001000)
T3848 000:541.420 - 0.010ms returns 0x00
T3848 000:541.428 JLINK_WriteReg(R14, 0x20000001)
T3848 000:541.434 - 0.009ms returns 0x00
T3848 000:541.442 JLINK_WriteReg(R15 (PC), 0x200000F4)
T3848 000:541.448 - 0.009ms returns 0x00
T3848 000:541.456 JLINK_WriteReg(XPSR, 0x01000000)
T3848 000:541.463 - 0.009ms returns 0x00
T3848 000:541.470 JLINK_WriteReg(MSP, 0x20001000)
T3848 000:541.477 - 0.009ms returns 0x00
T3848 000:541.485 JLINK_WriteReg(PSP, 0x20001000)
T3848 000:541.491 - 0.009ms returns 0x00
T3848 000:541.499 JLINK_WriteReg(CFBP, 0x00000000)
T3848 000:541.524 - 0.028ms returns 0x00
T3848 000:541.532   JLINK_SetBPEx(Addr = 0x20000000, Type = 0xFFFFFFF2)
T3848 000:541.543 - 0.014ms returns 0x00000008
T3848 000:541.551 JLINK_Go()
T3848 000:541.564   CPU_ReadMem(4 bytes @ 0xE0001000)
T3848 000:543.431 - 1.906ms
T3848 000:543.466 JLINK_IsHalted()
T3848 000:543.748 - 0.290ms returns FALSE
T3848 000:545.044 JLINK_IsHalted()
T3848 000:545.368 - 0.332ms returns FALSE
T3848 000:547.153 JLINK_IsHalted()
T3848 000:547.461 - 0.316ms returns FALSE
T3848 000:549.138 JLINK_IsHalted()
T3848 000:549.444 - 0.313ms returns FALSE
T3848 000:551.144 JLINK_IsHalted()
T3848 000:551.451 - 0.314ms returns FALSE
T3848 000:553.134 JLINK_IsHalted()
T3848 000:553.445 - 0.318ms returns FALSE
T3848 000:555.009 JLINK_IsHalted()
T3848 000:555.339 - 0.337ms returns FALSE
T3848 000:557.130 JLINK_IsHalted()
T3848 000:557.421 - 0.298ms returns FALSE
T3848 000:559.123 JLINK_IsHalted()
T3848 000:559.421 - 0.306ms returns FALSE
T3848 000:561.124 JLINK_IsHalted()
T3848 000:561.427 - 0.310ms returns FALSE
T3848 000:563.111 JLINK_IsHalted()
T3848 000:563.413 - 0.309ms returns FALSE
T3848 000:564.972 JLINK_IsHalted()
T3848 000:565.263 - 0.298ms returns FALSE
T3848 000:568.086 JLINK_IsHalted()
T3848 000:568.393 - 0.314ms returns FALSE
T3848 000:569.973 JLINK_IsHalted()
T3848 000:570.338 - 0.379ms returns FALSE
T3848 000:572.109 JLINK_IsHalted()
T3848 000:572.512 - 0.418ms returns FALSE
T3848 000:574.081 JLINK_IsHalted()
T3848 000:575.818   CPU_ReadMem(2 bytes @ 0x20000000)
T3848 000:576.209 - 2.146ms returns TRUE
T3848 000:576.243 JLINK_ReadReg(R15 (PC))
T3848 000:576.261 - 0.023ms returns 0x20000000
T3848 000:576.276 JLINK_ClrBPEx(BPHandle = 0x00000008)
T3848 000:576.288 - 0.017ms returns 0x00
T3848 000:576.303 JLINK_ReadReg(R0)
T3848 000:576.315 - 0.017ms returns 0x00000000
T3848 000:577.151 JLINK_WriteMem(0x20000164, 0x029C Bytes, ...)
T3848 000:577.173   Data:  70 47 00 BF 0E 49 0A 68 22 F4 60 52 42 EA C0 00 ...
T3848 000:577.202   CPU_WriteMem(668 bytes @ 0x20000164)
T3848 000:579.058 - 1.923ms returns 0x29C
T3848 000:579.088 JLINK_WriteMem(0x20000400, 0x0164 Bytes, ...)
T3848 000:579.101   Data:  00 2B B0 FB F1 F0 4F F0 0F 01 48 BF 07 21 08 40 ...
T3848 000:579.127   CPU_WriteMem(356 bytes @ 0x20000400)
T3848 000:580.411 - 1.336ms returns 0x164
T3848 000:580.445 JLINK_WriteReg(R0, 0x08001000)
T3848 000:580.462 - 0.023ms returns 0x00
T3848 000:580.477 JLINK_WriteReg(R1, 0x00000400)
T3848 000:580.489 - 0.017ms returns 0x00
T3848 000:580.503 JLINK_WriteReg(R2, 0x20000164)
T3848 000:580.514 - 0.016ms returns 0x00
T3848 000:580.532 JLINK_WriteReg(R3, 0x00000000)
T3848 000:580.547 - 0.020ms returns 0x00
T3848 000:580.561 JLINK_WriteReg(R4, 0x00000000)
T3848 000:580.573 - 0.016ms returns 0x00
T3848 000:580.586 JLINK_WriteReg(R5, 0x00000000)
T3848 000:580.597 - 0.016ms returns 0x00
T3848 000:580.611 JLINK_WriteReg(R6, 0x00000000)
T3848 000:580.622 - 0.016ms returns 0x00
T3848 000:580.636 JLINK_WriteReg(R7, 0x00000000)
T3848 000:580.647 - 0.016ms returns 0x00
T3848 000:580.661 JLINK_WriteReg(R8, 0x00000000)
T3848 000:580.672 - 0.016ms returns 0x00
T3848 000:580.685 JLINK_WriteReg(R9, 0x20000160)
T3848 000:580.697 - 0.016ms returns 0x00
T3848 000:580.710 JLINK_WriteReg(R10, 0x00000000)
T3848 000:580.722 - 0.017ms returns 0x00
T3848 000:580.736 JLINK_WriteReg(R11, 0x00000000)
T3848 000:580.747 - 0.016ms returns 0x00
T3848 000:580.761 JLINK_WriteReg(R12, 0x00000000)
T3848 000:580.772 - 0.016ms returns 0x00
T3848 000:580.786 JLINK_WriteReg(R13 (SP), 0x20001000)
T3848 000:580.799 - 0.018ms returns 0x00
T3848 000:580.812 JLINK_WriteReg(R14, 0x20000001)
T3848 000:580.824 - 0.017ms returns 0x00
T3848 000:580.838 JLINK_WriteReg(R15 (PC), 0x200000F4)
T3848 000:580.849 - 0.017ms returns 0x00
T3848 000:580.863 JLINK_WriteReg(XPSR, 0x01000000)
T3848 000:580.875 - 0.017ms returns 0x00
T3848 000:580.889 JLINK_WriteReg(MSP, 0x20001000)
T3848 000:580.900 - 0.016ms returns 0x00
T3848 000:580.917 JLINK_WriteReg(PSP, 0x20001000)
T3848 000:580.929 - 0.017ms returns 0x00
T3848 000:580.943 JLINK_WriteReg(CFBP, 0x00000000)
T3848 000:580.955 - 0.017ms returns 0x00
T3848 000:580.970   JLINK_SetBPEx(Addr = 0x20000000, Type = 0xFFFFFFF2)
T3848 000:580.988 - 0.024ms returns 0x00000009
T3848 000:581.002 JLINK_Go()
T3848 000:581.024   CPU_ReadMem(4 bytes @ 0xE0001000)
T3848 000:583.023 - 2.034ms
T3848 000:583.055 JLINK_IsHalted()
T3848 000:583.412 - 0.370ms returns FALSE
T3848 000:585.053 JLINK_IsHalted()
T3848 000:585.341 - 0.296ms returns FALSE
T3848 000:586.923 JLINK_IsHalted()
T3848 000:587.246 - 0.331ms returns FALSE
T3848 000:589.081 JLINK_IsHalted()
T3848 000:589.403 - 0.329ms returns FALSE
T3848 000:591.022 JLINK_IsHalted()
T3848 000:591.322 - 0.308ms returns FALSE
T3848 000:593.056 JLINK_IsHalted()
T3848 000:593.372 - 0.323ms returns FALSE
T3848 000:595.028 JLINK_IsHalted()
T3848 000:595.333 - 0.312ms returns FALSE
T3848 000:597.017 JLINK_IsHalted()
T3848 000:597.322 - 0.312ms returns FALSE
T3848 000:598.971 JLINK_IsHalted()
T3848 000:599.277 - 0.314ms returns FALSE
T3848 000:601.057 JLINK_IsHalted()
T3848 000:601.382 - 0.334ms returns FALSE
T3848 000:603.011 JLINK_IsHalted()
T3848 000:603.314 - 0.312ms returns FALSE
T3848 000:605.012 JLINK_IsHalted()
T3848 000:605.312 - 0.309ms returns FALSE
T3848 000:607.000 JLINK_IsHalted()
T3848 000:607.324 - 0.333ms returns FALSE
T3848 000:608.871 JLINK_IsHalted()
T3848 000:609.136 - 0.273ms returns FALSE
T3848 000:611.971 JLINK_IsHalted()
T3848 000:612.290 - 0.327ms returns FALSE
T3848 000:613.963 JLINK_IsHalted()
T3848 000:615.389   CPU_ReadMem(2 bytes @ 0x20000000)
T3848 000:615.709 - 1.770ms returns TRUE
T3848 000:615.761 JLINK_ReadReg(R15 (PC))
T3848 000:615.770 - 0.012ms returns 0x20000000
T3848 000:615.779 JLINK_ClrBPEx(BPHandle = 0x00000009)
T3848 000:615.788 - 0.012ms returns 0x00
T3848 000:615.797 JLINK_ReadReg(R0)
T3848 000:615.804 - 0.009ms returns 0x00000000
T3848 000:616.289 JLINK_WriteMem(0x20000164, 0x029C Bytes, ...)
T3848 000:616.299   Data:  0D 52 4F 4D C4 DA B4 E6 B5 BD 55 53 41 52 54 CD ...
T3848 000:616.314   CPU_WriteMem(668 bytes @ 0x20000164)
T3848 000:618.075 - 1.793ms returns 0x29C
T3848 000:618.090 JLINK_WriteMem(0x20000400, 0x0164 Bytes, ...)
T3848 000:618.097   Data:  FF F7 86 FC 08 28 FB D1 1C BD 00 00 80 B5 0A A0 ...
T3848 000:618.111   CPU_WriteMem(356 bytes @ 0x20000400)
T3848 000:619.346 - 1.263ms returns 0x164
T3848 000:619.364 JLINK_WriteReg(R0, 0x08001400)
T3848 000:619.374 - 0.013ms returns 0x00
T3848 000:619.382 JLINK_WriteReg(R1, 0x00000400)
T3848 000:619.388 - 0.009ms returns 0x00
T3848 000:619.396 JLINK_WriteReg(R2, 0x20000164)
T3848 000:619.407 - 0.014ms returns 0x00
T3848 000:619.415 JLINK_WriteReg(R3, 0x00000000)
T3848 000:619.422 - 0.009ms returns 0x00
T3848 000:619.430 JLINK_WriteReg(R4, 0x00000000)
T3848 000:619.436 - 0.009ms returns 0x00
T3848 000:619.444 JLINK_WriteReg(R5, 0x00000000)
T3848 000:619.450 - 0.009ms returns 0x00
T3848 000:619.458 JLINK_WriteReg(R6, 0x00000000)
T3848 000:619.464 - 0.009ms returns 0x00
T3848 000:619.472 JLINK_WriteReg(R7, 0x00000000)
T3848 000:619.478 - 0.009ms returns 0x00
T3848 000:619.486 JLINK_WriteReg(R8, 0x00000000)
T3848 000:619.493 - 0.009ms returns 0x00
T3848 000:619.501 JLINK_WriteReg(R9, 0x20000160)
T3848 000:619.507 - 0.009ms returns 0x00
T3848 000:619.515 JLINK_WriteReg(R10, 0x00000000)
T3848 000:619.521 - 0.009ms returns 0x00
T3848 000:619.529 JLINK_WriteReg(R11, 0x00000000)
T3848 000:619.535 - 0.009ms returns 0x00
T3848 000:619.543 JLINK_WriteReg(R12, 0x00000000)
T3848 000:619.549 - 0.009ms returns 0x00
T3848 000:619.557 JLINK_WriteReg(R13 (SP), 0x20001000)
T3848 000:619.564 - 0.010ms returns 0x00
T3848 000:619.572 JLINK_WriteReg(R14, 0x20000001)
T3848 000:619.578 - 0.009ms returns 0x00
T3848 000:619.586 JLINK_WriteReg(R15 (PC), 0x200000F4)
T3848 000:619.592 - 0.009ms returns 0x00
T3848 000:619.600 JLINK_WriteReg(XPSR, 0x01000000)
T3848 000:619.606 - 0.009ms returns 0x00
T3848 000:619.614 JLINK_WriteReg(MSP, 0x20001000)
T3848 000:619.621 - 0.009ms returns 0x00
T3848 000:619.628 JLINK_WriteReg(PSP, 0x20001000)
T3848 000:619.635 - 0.009ms returns 0x00
T3848 000:619.642 JLINK_WriteReg(CFBP, 0x00000000)
T3848 000:619.649 - 0.009ms returns 0x00
T3848 000:619.657   JLINK_SetBPEx(Addr = 0x20000000, Type = 0xFFFFFFF2)
T3848 000:619.667 - 0.013ms returns 0x0000000A
T3848 000:619.675 JLINK_Go()
T3848 000:619.687   CPU_ReadMem(4 bytes @ 0xE0001000)
T3848 000:621.426 - 1.759ms
T3848 000:621.442 JLINK_IsHalted()
T3848 000:621.750 - 0.315ms returns FALSE
T3848 000:623.968 JLINK_IsHalted()
T3848 000:624.280 - 0.319ms returns FALSE
T3848 000:625.804 JLINK_IsHalted()
T3848 000:626.043 - 0.247ms returns FALSE
T3848 000:627.837 JLINK_IsHalted()
T3848 000:628.157 - 0.327ms returns FALSE
T3848 000:629.918 JLINK_IsHalted()
T3848 000:630.222 - 0.312ms returns FALSE
T3848 000:631.936 JLINK_IsHalted()
T3848 000:632.262 - 0.333ms returns FALSE
T3848 000:633.917 JLINK_IsHalted()
T3848 000:634.225 - 0.315ms returns FALSE
T3848 000:635.776 JLINK_IsHalted()
T3848 000:636.100 - 0.332ms returns FALSE
T3848 000:637.903 JLINK_IsHalted()
T3848 000:638.199 - 0.304ms returns FALSE
T3848 000:639.915 JLINK_IsHalted()
T3848 000:640.217 - 0.309ms returns FALSE
T3848 000:641.896 JLINK_IsHalted()
T3848 000:642.206 - 0.318ms returns FALSE
T3848 000:643.754 JLINK_IsHalted()
T3848 000:644.115 - 0.369ms returns FALSE
T3848 000:645.749 JLINK_IsHalted()
T3848 000:646.042 - 0.301ms returns FALSE
T3848 000:647.867 JLINK_IsHalted()
T3848 000:648.168 - 0.308ms returns FALSE
T3848 000:649.880 JLINK_IsHalted()
T3848 000:650.171 - 0.298ms returns FALSE
T3848 000:651.861 JLINK_IsHalted()
T3848 000:653.395   CPU_ReadMem(2 bytes @ 0x20000000)
T3848 000:653.758 - 1.905ms returns TRUE
T3848 000:653.774 JLINK_ReadReg(R15 (PC))
T3848 000:653.783 - 0.012ms returns 0x20000000
T3848 000:653.792 JLINK_ClrBPEx(BPHandle = 0x0000000A)
T3848 000:653.799 - 0.010ms returns 0x00
T3848 000:653.807 JLINK_ReadReg(R0)
T3848 000:653.814 - 0.009ms returns 0x00000000
T3848 000:654.235 JLINK_WriteMem(0x20000164, 0x029C Bytes, ...)
T3848 000:654.246   Data:  28 46 21 46 BD E8 B0 40 FE F7 9A BE 28 46 21 46 ...
T3848 000:654.260   CPU_WriteMem(668 bytes @ 0x20000164)
T3848 000:656.074 - 1.847ms returns 0x29C
T3848 000:656.090 JLINK_WriteMem(0x20000400, 0x0164 Bytes, ...)
T3848 000:656.097   Data:  B0 BD 10 B5 04 46 FF F7 0D FC 20 46 80 21 FF F7 ...
T3848 000:656.111   CPU_WriteMem(356 bytes @ 0x20000400)
T3848 000:657.447 - 1.365ms returns 0x164
T3848 000:657.465 JLINK_WriteReg(R0, 0x08001800)
T3848 000:657.475 - 0.013ms returns 0x00
T3848 000:657.483 JLINK_WriteReg(R1, 0x00000400)
T3848 000:657.494 - 0.013ms returns 0x00
T3848 000:657.502 JLINK_WriteReg(R2, 0x20000164)
T3848 000:657.509 - 0.009ms returns 0x00
T3848 000:657.516 JLINK_WriteReg(R3, 0x00000000)
T3848 000:657.523 - 0.009ms returns 0x00
T3848 000:657.531 JLINK_WriteReg(R4, 0x00000000)
T3848 000:657.537 - 0.009ms returns 0x00
T3848 000:657.545 JLINK_WriteReg(R5, 0x00000000)
T3848 000:657.551 - 0.009ms returns 0x00
T3848 000:657.559 JLINK_WriteReg(R6, 0x00000000)
T3848 000:657.565 - 0.009ms returns 0x00
T3848 000:657.573 JLINK_WriteReg(R7, 0x00000000)
T3848 000:657.579 - 0.009ms returns 0x00
T3848 000:657.587 JLINK_WriteReg(R8, 0x00000000)
T3848 000:657.593 - 0.009ms returns 0x00
T3848 000:657.601 JLINK_WriteReg(R9, 0x20000160)
T3848 000:657.607 - 0.009ms returns 0x00
T3848 000:657.615 JLINK_WriteReg(R10, 0x00000000)
T3848 000:657.621 - 0.009ms returns 0x00
T3848 000:657.629 JLINK_WriteReg(R11, 0x00000000)
T3848 000:657.636 - 0.009ms returns 0x00
T3848 000:657.644 JLINK_WriteReg(R12, 0x00000000)
T3848 000:657.650 - 0.009ms returns 0x00
T3848 000:657.658 JLINK_WriteReg(R13 (SP), 0x20001000)
T3848 000:657.665 - 0.010ms returns 0x00
T3848 000:657.673 JLINK_WriteReg(R14, 0x20000001)
T3848 000:657.682 - 0.011ms returns 0x00
T3848 000:657.690 JLINK_WriteReg(R15 (PC), 0x200000F4)
T3848 000:657.696 - 0.009ms returns 0x00
T3848 000:657.704 JLINK_WriteReg(XPSR, 0x01000000)
T3848 000:657.711 - 0.009ms returns 0x00
T3848 000:657.719 JLINK_WriteReg(MSP, 0x20001000)
T3848 000:657.726 - 0.009ms returns 0x00
T3848 000:657.733 JLINK_WriteReg(PSP, 0x20001000)
T3848 000:657.740 - 0.009ms returns 0x00
T3848 000:657.749 JLINK_WriteReg(CFBP, 0x00000000)
T3848 000:657.758 - 0.013ms returns 0x00
T3848 000:657.768   JLINK_SetBPEx(Addr = 0x20000000, Type = 0xFFFFFFF2)
T3848 000:657.778 - 0.013ms returns 0x0000000B
T3848 000:657.786 JLINK_Go()
